
T1C24 000:389 SEGGER J-Link V4.98e Log File (0000ms, 0322ms total)
T1C24 000:389 DLL Compiled: May  5 2015 11:00:52 (0000ms, 0322ms total)
T1C24 000:389 Logging started @ 2016-03-14 15:43 (0000ms, 0322ms total)
T1C24 000:389 JLINK_SetWarnOutHandler(...) (0000ms, 0322ms total)
T1C24 000:389 JLINK_OpenEx(...)
Firmware: J-Link ARM-OB STM32 compiled Aug 22 2012 19:52:04
Hardware: V7.00
S/N: 20150926
Feature(s): RDI,FlashDL,FlashBP,JFlash,GDBFull  returns O.K. (0312ms, 0634ms total)
T1C24 000:701 JLINK_SetErrorOutHandler(...) (0000ms, 0634ms total)
T1C24 000:701 JLINK_ExecCommand("ProjectFile = "D:\BMS\BMS\BMS_MasterNew\JLinkSettings.ini"", ...)  returns 0x00 (0000ms, 0634ms total)
T1C24 000:714 JLINK_ExecCommand("Device = SKEAZ64xxx4", ...)Device "SKEAZ64XXX4" selected.  returns 0x00 (0024ms, 0658ms total)
T1C24 000:738 JLINK_ExecCommand("DisableConnectionTimeout", ...)  returns 0x01 (0000ms, 0658ms total)
T1C24 000:738 JLINK_GetHardwareVersion()  returns 0x11170 (0000ms, 0658ms total)
T1C24 000:738 JLINK_GetDLLVersion()  returns 49805 (0000ms, 0658ms total)
T1C24 000:738 JLINK_GetFirmwareString(...) (0000ms, 0658ms total)
T1C24 000:767 JLINK_GetDLLVersion()  returns 49805 (0000ms, 0658ms total)
T1C24 000:767 JLINK_GetCompileDateTime() (0000ms, 0658ms total)
T1C24 000:778 JLINK_GetFirmwareString(...) (0000ms, 0658ms total)
T1C24 000:788 JLINK_GetHardwareVersion()  returns 0x11170 (0000ms, 0658ms total)
T1C24 000:833 JLINK_TIF_Select(JLINKARM_TIF_SWD)  returns 0x00 (0013ms, 0671ms total)
T1C24 000:846 JLINK_SetSpeed(1000) (0003ms, 0674ms total)
T1C24 000:849 JLINK_GetId() >0x108 TIF>Found SWD-DP with ID 0x0BC11477 >0x0D TIF> >0x28 TIF> >0x0D TIF> >0x28 TIF> >0x0D TIF> >0x21 TIF> >0x0D TIF> >0x28 TIF> >0x0D TIF> >0x21 TIF> >0x0D TIF> >0x21 TIF> >0x0D TIF> >0x21 TIF> >0x0D TIF> >0x21 TIF> >0x0D TIF> >0x21 TIF> >0x0D TIF> >0x21 TIF> >0x0D TIF> >0x21 TIF> >0x0D TIF> >0x21 TIF> >0x0D TIF> >0x21 TIF> >0x0D TIF> >0x21 TIF> >0x0D TIF> >0x28 TIF> >0x0D TIF> >0x28 TIF> >0x0D TIF> >0x28 TIF> >0x0D TIF> >0x28 TIF> >0x0D TIF> >0x28 TIF> >0x0D TIF>
 >0x28 TIF> >0x0D TIF> >0x28 TIF> >0x0D TIF> >0x21 TIF> >0x0D TIF> >0x21 TIF> >0x0D TIF> >0x28 TIF> >0x108 TIF>Found SWD-DP with ID 0x0BC11477 >0x0D TIF> >0x21 TIF> >0x0D TIF> >0x28 TIF> >0x0D TIF> >0x28 TIF> >0x0D TIF> >0x21 TIF> >0x0D TIF> >0x28 TIF> >0x0D TIF> >0x21 TIF> >0x0D TIF> >0x21 TIF> >0x0D TIF> >0x21 TIF> >0x0D TIF> >0x28 TIF> >0x0D TIF> >0x28 TIF> >0x0D TIF> >0x28 TIF> >0x0D TIF> >0x21 TIF> >0x0D TIF> >0x21 TIF> >0x0D TIF> >0x21 TIF> >0x0D TIF> >0x28 TIF> >0x0D TIF> >0x28 TIF> >0x0D TIF>
 >0x21 TIF> >0x0D TIF> >0x28 TIF> >0x0D TIF> >0x28 TIF> >0x0D TIF> >0x28 TIF> >0x0D TIF> >0x21 TIF> >0x0D TIF> >0x21 TIF> >0x0D TIF> >0x28 TIF> >0x0D TIF> >0x21 TIF> >0x0D TIF> >0x21 TIF>Found Cortex-M0 r0p0, Little endian. -- CPU_WriteMem(4 bytes @ 0xE0002000) -- CPU_ReadMem(4 bytes @ 0xE000EDF0) -- CPU_ReadMem(4 bytes @ 0xE0002000)FPUnit: 2 code (BP) slots and 0 literal slots -- CPU_ReadMem(4 bytes @ 0xE000EDFC) -- CPU_ReadMem(4 bytes @ 0xE0001000) -- CPU_WriteMem(4 bytes @ 0xE0001000)
CoreSight components:ROMTbl 0 @ F0002000 -- CPU_ReadMem(16 bytes @ 0xF0002000) -- CPU_ReadMem(16 bytes @ 0xE00FFFF0) -- CPU_ReadMem(16 bytes @ 0xE00FFFE0)ROMTbl 0 [0]: F00FD000, CID: B105100D, PID: 000BB4C0 ROM TableROMTbl 1 @ E00FF000 -- CPU_ReadMem(16 bytes @ 0xE00FF000) -- CPU_ReadMem(16 bytes @ 0xE000EFF0) -- CPU_ReadMem(16 bytes @ 0xE000EFE0)ROMTbl 1 [0]: FFF0F000, CID: B105E00D, PID: 000BB008 SCS -- CPU_ReadMem(16 bytes @ 0xE0001FF0) -- CPU_ReadMem(16 bytes @ 0xE0001FE0)
ROMTbl 1 [1]: FFF02000, CID: B105E00D, PID: 000BB00A DWT -- CPU_ReadMem(16 bytes @ 0xE0002FF0) -- CPU_ReadMem(16 bytes @ 0xE0002FE0)ROMTbl 1 [2]: FFF03000, CID: B105E00D, PID: 000BB00B FPB -- CPU_ReadMem(1 bytes @ 0x40052000) -- CPU_ReadMem(4 bytes @ 0xE0001000) -- CPU_WriteMem(4 bytes @ 0xE0001000) >0x0D TIF> >0x21 TIF>  returns 0x0BC11477 (0697ms, 1371ms total)
T1C24 001:546 JLINK_GetDLLVersion()  returns 49805 (0000ms, 1371ms total)
T1C24 001:546 JLINK_CORE_GetFound()  returns 0x60000FF (0005ms, 1376ms total)
T1C24 001:551 JLINK_GetDebugInfo(0x100) -- Value=0xF0002003  returns 0x00 (0000ms, 1376ms total)
T1C24 001:562 JLINK_ReadMem (0xF0002000, 0x0020 Bytes, ...) -- CPU is running -- CPU_ReadMem(32 bytes @ 0xF0002000) - Data: 03 D0 0F F0 00 00 00 00 00 00 00 00 00 00 00 00 ...  returns 0x00 (0005ms, 1381ms total)
T1C24 001:567 JLINK_ReadMem (0xE00FFFF0, 0x0010 Bytes, ...) -- CPU is running -- CPU_ReadMem(16 bytes @ 0xE00FFFF0) - Data: 0D 00 00 00 10 00 00 00 05 00 00 00 B1 00 00 00  returns 0x00 (0005ms, 1386ms total)
T1C24 001:572 JLINK_ReadMem (0xE00FFFD0, 0x0020 Bytes, ...) -- CPU is running -- CPU_ReadMem(32 bytes @ 0xE00FFFD0) - Data: 04 00 00 00 00 00 00 00 00 00 00 00 00 00 00 00 ...  returns 0x00 (0005ms, 1391ms total)
T1C24 001:577 JLINK_ReadMem (0xE00FF000, 0x0020 Bytes, ...) -- CPU is running -- CPU_ReadMem(32 bytes @ 0xE00FF000) - Data: 03 F0 F0 FF 03 20 F0 FF 03 30 F0 FF 00 00 00 00 ...  returns 0x00 (0005ms, 1396ms total)
T1C24 001:582 JLINK_ReadMem (0xE000EFF0, 0x0010 Bytes, ...) -- CPU is running -- CPU_ReadMem(16 bytes @ 0xE000EFF0) - Data: 0D 00 00 00 E0 00 00 00 05 00 00 00 B1 00 00 00  returns 0x00 (0005ms, 1401ms total)
T1C24 001:587 JLINK_ReadMem (0xE000EFD0, 0x0020 Bytes, ...) -- CPU is running -- CPU_ReadMem(32 bytes @ 0xE000EFD0) - Data: 04 00 00 00 00 00 00 00 00 00 00 00 00 00 00 00 ...  returns 0x00 (0005ms, 1406ms total)
T1C24 001:592 JLINK_ReadMem (0xE0001FF0, 0x0010 Bytes, ...) -- CPU is running -- CPU_ReadMem(16 bytes @ 0xE0001FF0) - Data: 0D 00 00 00 E0 00 00 00 05 00 00 00 B1 00 00 00  returns 0x00 (0004ms, 1410ms total)
T1C24 001:596 JLINK_ReadMem (0xE0001FD0, 0x0020 Bytes, ...) -- CPU is running -- CPU_ReadMem(32 bytes @ 0xE0001FD0) - Data: 04 00 00 00 00 00 00 00 00 00 00 00 00 00 00 00 ...  returns 0x00 (0005ms, 1415ms total)
T1C24 001:601 JLINK_ReadMem (0xE0002FF0, 0x0010 Bytes, ...) -- CPU is running -- CPU_ReadMem(16 bytes @ 0xE0002FF0) - Data: 0D 00 00 00 E0 00 00 00 05 00 00 00 B1 00 00 00  returns 0x00 (0005ms, 1420ms total)
T1C24 001:606 JLINK_ReadMem (0xE0002FD0, 0x0020 Bytes, ...) -- CPU is running -- CPU_ReadMem(32 bytes @ 0xE0002FD0) - Data: 04 00 00 00 00 00 00 00 00 00 00 00 00 00 00 00 ...  returns 0x00 (0004ms, 1424ms total)
T1C24 001:610 JLINK_ReadMemU32(0xE000ED00, 0x0001 Items, ...) -- CPU is running -- CPU_ReadMem(4 bytes @ 0xE000ED00) - Data: 00 C6 0C 41  returns 0x01 (0005ms, 1429ms total)
T1C24 001:615 JLINK_SetResetType(JLINKARM_RESET_TYPE_NORMAL)  returns JLINKARM_RESET_TYPE_NORMAL (0000ms, 1429ms total)
T1C24 001:615 JLINK_Reset() -- CPU is running -- CPU_WriteMem(4 bytes @ 0xE000EDF0) -- CPU is running -- CPU_WriteMem(4 bytes @ 0xE000EDFC) >0x35 TIF> -- CPU is running -- CPU_WriteMem(4 bytes @ 0xE000ED0C) -- CPU is running -- CPU_ReadMem(4 bytes @ 0xE000EDF0) -- CPU is running -- CPU_ReadMem(4 bytes @ 0xE000EDF0) -- CPU is running -- CPU_WriteMem(4 bytes @ 0xE000EDF0) -- CPU is running -- CPU_WriteMem(4 bytes @ 0xE000EDFC) -- CPU is running -- CPU_ReadMem(4 bytes @ 0xE000EDF0)
 -- CPU_ReadMem(1 bytes @ 0x40052000) -- CPU_WriteMem(1 bytes @ 0x40052004) -- CPU_WriteMem(1 bytes @ 0x40052005) -- CPU_WriteMem(1 bytes @ 0x40052006) -- CPU_WriteMem(1 bytes @ 0x40052007) -- CPU_WriteMem(1 bytes @ 0x40052001) -- CPU_WriteMem(1 bytes @ 0x40052000) -- CPU_ReadMem(1 bytes @ 0x40052000) -- CPU_WriteMem(4 bytes @ 0xE0002000) -- CPU_ReadMem(4 bytes @ 0xE000EDFC) -- CPU_ReadMem(4 bytes @ 0xE0001000) -- CPU_WriteMem(4 bytes @ 0xE0001000) (0118ms, 1547ms total)
T1C24 001:737 JLINK_Halt()  returns 0x00 (0000ms, 1547ms total)
T1C24 001:737 JLINK_IsHalted()  returns TRUE (0000ms, 1547ms total)
T1C24 001:737 JLINK_ReadMemU32(0xE000EDF0, 0x0001 Items, ...) -- CPU_ReadMem(4 bytes @ 0xE000EDF0) - Data: 03 00 03 01  returns 0x01 (0005ms, 1552ms total)
T1C24 001:742 JLINK_WriteU32(0xE000EDF0, 0xA05F0003) -- CPU_WriteMem(4 bytes @ 0xE000EDF0)  returns 0x00 (0005ms, 1557ms total)
T1C24 001:747 JLINK_WriteU32(0xE000EDFC, 0x01000000) -- CPU_WriteMem(4 bytes @ 0xE000EDFC)  returns 0x00 (0005ms, 1562ms total)
T1C24 001:793 JLINK_GetHWStatus(...)  returns 0x00 (0004ms, 1566ms total)
T1C24 001:827 JLINK_GetNumBPUnits(Type = 0xFFFFFF00)  returns 0x02 (0000ms, 1566ms total)
T1C24 001:827 JLINK_GetNumBPUnits(Type = 0xF0)  returns 0x2000 (0000ms, 1566ms total)
T1C24 001:827 JLINK_GetNumWPUnits()  returns 0x02 (0000ms, 1566ms total)
T1C24 001:857 JLINK_GetSpeed()  returns 0x3E8 (0000ms, 1566ms total)
T1C24 001:876 JLINK_ReadMemU32(0xE000E004, 0x0001 Items, ...) -- CPU_ReadMem(4 bytes @ 0xE000E004) - Data: 00 00 00 00  returns 0x01 (0005ms, 1571ms total)
T1C24 001:881 JLINK_Halt()  returns 0x00 (0000ms, 1571ms total)
T1C24 001:881 JLINK_IsHalted()  returns TRUE (0000ms, 1571ms total)
T1C24 001:883 JLINK_WriteMem(0x1FFFF000, 0x01AC Bytes, ...) - Data: 00 BE 0A E0 0D 78 2D 06 68 40 08 24 40 00 00 D3 ... -- CPU_WriteMem(428 bytes @ 0x1FFFF000)  returns 0x1AC (0018ms, 1589ms total)
T1C24 001:901 JLINK_WriteReg(R0, 0x00000000)  returns 0x00 (0000ms, 1589ms total)
T1C24 001:901 JLINK_WriteReg(R1, 0x00B71B00)  returns 0x00 (0000ms, 1589ms total)
T1C24 001:901 JLINK_WriteReg(R2, 0x00000001)  returns 0x00 (0000ms, 1589ms total)
T1C24 001:901 JLINK_WriteReg(R3, 0x00000000)  returns 0x00 (0000ms, 1589ms total)
T1C24 001:901 JLINK_WriteReg(R4, 0x00000000)  returns 0x00 (0000ms, 1589ms total)
T1C24 001:901 JLINK_WriteReg(R5, 0x00000000)  returns 0x00 (0000ms, 1589ms total)
T1C24 001:901 JLINK_WriteReg(R6, 0x00000000)  returns 0x00 (0000ms, 1589ms total)
T1C24 001:901 JLINK_WriteReg(R7, 0x00000000)  returns 0x00 (0000ms, 1589ms total)
T1C24 001:901 JLINK_WriteReg(R8, 0x00000000)  returns 0x00 (0000ms, 1589ms total)
T1C24 001:901 JLINK_WriteReg(R9, 0x1FFFF1A8)  returns 0x00 (0000ms, 1589ms total)
T1C24 001:901 JLINK_WriteReg(R10, 0x00000000)  returns 0x00 (0000ms, 1589ms total)
T1C24 001:901 JLINK_WriteReg(R11, 0x00000000)  returns 0x00 (0000ms, 1589ms total)
T1C24 001:901 JLINK_WriteReg(R12, 0x00000000)  returns 0x00 (0000ms, 1589ms total)
T1C24 001:901 JLINK_WriteReg(R13 (SP), 0x1FFFF800)  returns 0x00 (0000ms, 1589ms total)
T1C24 001:901 JLINK_WriteReg(R14, 0x1FFFF001)  returns 0x00 (0000ms, 1589ms total)
T1C24 001:901 JLINK_WriteReg(R15 (PC), 0x1FFFF038)  returns 0x00 (0000ms, 1589ms total)
T1C24 001:901 JLINK_WriteReg(XPSR, 0x01000000)  returns 0x00 (0000ms, 1589ms total)
T1C24 001:901 JLINK_WriteReg(MSP, 0x1FFFF800)  returns 0x00 (0000ms, 1589ms total)
T1C24 001:901 JLINK_WriteReg(PSP, 0x1FFFF800)  returns 0x00 (0000ms, 1589ms total)
T1C24 001:901 JLINK_WriteReg(CFBP, 0x00000000)  returns 0x00 (0000ms, 1589ms total)
T1C24 001:901 JLINK_SetBPEx(Addr = 0x1FFFF000, Type = 0xFFFFFFF2)  returns 0x00000001 (0000ms, 1589ms total)
T1C24 001:901 JLINK_Go() -- CPU_WriteMem(4 bytes @ 0xE0002000) -- CPU_ReadMem(4 bytes @ 0xE0001000) -- CPU_WriteMem(4 bytes @ 0xE0001000) -- CPU_WriteMem(4 bytes @ 0xE0002008) -- CPU_WriteMem(4 bytes @ 0xE000200C) -- CPU_WriteMem(4 bytes @ 0xE0001004) (0034ms, 1623ms total)
T1C24 001:935 JLINK_IsHalted()  returns TRUE (0015ms, 1638ms total)
T1C24 001:950 JLINK_ReadReg(R15 (PC))  returns 0x1FFFF000 (0000ms, 1623ms total)
T1C24 001:950 JLINK_ClrBPEx(BPHandle = 0x00000001)  returns 0x00 (0000ms, 1623ms total)
T1C24 001:950 JLINK_ReadReg(R0)  returns 0x00000000 (0000ms, 1623ms total)
T1C24 001:950 JLINK_WriteReg(R0, 0x00000000)  returns 0x00 (0000ms, 1623ms total)
T1C24 001:950 JLINK_WriteReg(R1, 0x00B71B00)  returns 0x00 (0000ms, 1623ms total)
T1C24 001:951 JLINK_WriteReg(R2, 0x00000001)  returns 0x00 (0000ms, 1623ms total)
T1C24 001:951 JLINK_WriteReg(R3, 0x00000000)  returns 0x00 (0000ms, 1623ms total)
T1C24 001:951 JLINK_WriteReg(R4, 0x00000000)  returns 0x00 (0000ms, 1623ms total)
T1C24 001:951 JLINK_WriteReg(R5, 0x00000000)  returns 0x00 (0000ms, 1623ms total)
T1C24 001:951 JLINK_WriteReg(R6, 0x00000000)  returns 0x00 (0000ms, 1623ms total)
T1C24 001:951 JLINK_WriteReg(R7, 0x00000000)  returns 0x00 (0000ms, 1623ms total)
T1C24 001:951 JLINK_WriteReg(R8, 0x00000000)  returns 0x00 (0000ms, 1623ms total)
T1C24 001:951 JLINK_WriteReg(R9, 0x1FFFF1A8)  returns 0x00 (0000ms, 1623ms total)
T1C24 001:951 JLINK_WriteReg(R10, 0x00000000)  returns 0x00 (0000ms, 1623ms total)
T1C24 001:951 JLINK_WriteReg(R11, 0x00000000)  returns 0x00 (0000ms, 1623ms total)
T1C24 001:951 JLINK_WriteReg(R12, 0x00000000)  returns 0x00 (0000ms, 1623ms total)
T1C24 001:951 JLINK_WriteReg(R13 (SP), 0x1FFFF800)  returns 0x00 (0000ms, 1623ms total)
T1C24 001:951 JLINK_WriteReg(R14, 0x1FFFF001)  returns 0x00 (0000ms, 1623ms total)
T1C24 001:951 JLINK_WriteReg(R15 (PC), 0x1FFFF06C)  returns 0x00 (0000ms, 1623ms total)
T1C24 001:951 JLINK_WriteReg(XPSR, 0x01000000)  returns 0x00 (0000ms, 1623ms total)
T1C24 001:951 JLINK_WriteReg(MSP, 0x1FFFF800)  returns 0x00 (0000ms, 1623ms total)
T1C24 001:951 JLINK_WriteReg(PSP, 0x1FFFF800)  returns 0x00 (0000ms, 1623ms total)
T1C24 001:951 JLINK_WriteReg(CFBP, 0x00000000)  returns 0x00 (0000ms, 1623ms total)
T1C24 001:951 JLINK_SetBPEx(Addr = 0x1FFFF000, Type = 0xFFFFFFF2)  returns 0x00000002 (0000ms, 1623ms total)
T1C24 001:951 JLINK_Go() -- CPU_WriteMem(4 bytes @ 0xE0002000) -- CPU_ReadMem(4 bytes @ 0xE0001000) -- CPU_WriteMem(4 bytes @ 0xE0001000) (0024ms, 1647ms total)
T1C24 001:975 JLINK_IsHalted()  returns FALSE (0004ms, 1651ms total)
T1C24 002:109 JLINK_IsHalted()  returns TRUE (0015ms, 1662ms total)
T1C24 002:124 JLINK_ReadReg(R15 (PC))  returns 0x1FFFF000 (0000ms, 1647ms total)
T1C24 002:124 JLINK_ClrBPEx(BPHandle = 0x00000002)  returns 0x00 (0000ms, 1647ms total)
T1C24 002:124 JLINK_ReadReg(R0)  returns 0x00000000 (0000ms, 1647ms total)
T1C24 002:175 JLINK_WriteReg(R0, 0x00000001)  returns 0x00 (0000ms, 1647ms total)
T1C24 002:175 JLINK_WriteReg(R1, 0x00B71B00)  returns 0x00 (0000ms, 1647ms total)
T1C24 002:175 JLINK_WriteReg(R2, 0x00000001)  returns 0x00 (0000ms, 1647ms total)
T1C24 002:175 JLINK_WriteReg(R3, 0x00000000)  returns 0x00 (0000ms, 1647ms total)
T1C24 002:175 JLINK_WriteReg(R4, 0x00000000)  returns 0x00 (0000ms, 1647ms total)
T1C24 002:175 JLINK_WriteReg(R5, 0x00000000)  returns 0x00 (0000ms, 1647ms total)
T1C24 002:175 JLINK_WriteReg(R6, 0x00000000)  returns 0x00 (0000ms, 1647ms total)
T1C24 002:175 JLINK_WriteReg(R7, 0x00000000)  returns 0x00 (0000ms, 1647ms total)
T1C24 002:175 JLINK_WriteReg(R8, 0x00000000)  returns 0x00 (0000ms, 1647ms total)
T1C24 002:175 JLINK_WriteReg(R9, 0x1FFFF1A8)  returns 0x00 (0000ms, 1647ms total)
T1C24 002:175 JLINK_WriteReg(R10, 0x00000000)  returns 0x00 (0000ms, 1647ms total)
T1C24 002:175 JLINK_WriteReg(R11, 0x00000000)  returns 0x00 (0000ms, 1647ms total)
T1C24 002:175 JLINK_WriteReg(R12, 0x00000000)  returns 0x00 (0000ms, 1647ms total)
T1C24 002:175 JLINK_WriteReg(R13 (SP), 0x1FFFF800)  returns 0x00 (0000ms, 1647ms total)
T1C24 002:175 JLINK_WriteReg(R14, 0x1FFFF001)  returns 0x00 (0000ms, 1647ms total)
T1C24 002:175 JLINK_WriteReg(R15 (PC), 0x1FFFF068)  returns 0x00 (0000ms, 1647ms total)
T1C24 002:175 JLINK_WriteReg(XPSR, 0x01000000)  returns 0x00 (0000ms, 1647ms total)
T1C24 002:175 JLINK_WriteReg(MSP, 0x1FFFF800)  returns 0x00 (0000ms, 1647ms total)
T1C24 002:175 JLINK_WriteReg(PSP, 0x1FFFF800)  returns 0x00 (0000ms, 1647ms total)
T1C24 002:175 JLINK_WriteReg(CFBP, 0x00000000)  returns 0x00 (0000ms, 1647ms total)
T1C24 002:175 JLINK_SetBPEx(Addr = 0x1FFFF000, Type = 0xFFFFFFF2)  returns 0x00000003 (0000ms, 1647ms total)
T1C24 002:175 JLINK_Go() -- CPU_WriteMem(4 bytes @ 0xE0002000) -- CPU_ReadMem(4 bytes @ 0xE0001000) -- CPU_WriteMem(4 bytes @ 0xE0001000) (0025ms, 1672ms total)
T1C24 002:200 JLINK_IsHalted()  returns TRUE (0015ms, 1687ms total)
T1C24 002:215 JLINK_ReadReg(R15 (PC))  returns 0x1FFFF000 (0000ms, 1672ms total)
T1C24 002:215 JLINK_ClrBPEx(BPHandle = 0x00000003)  returns 0x00 (0000ms, 1672ms total)
T1C24 002:215 JLINK_ReadReg(R0)  returns 0x00000000 (0000ms, 1672ms total)
T1C24 002:228 JLINK_WriteMem(0x1FFFF000, 0x01AC Bytes, ...) - Data: 00 BE 0A E0 0D 78 2D 06 68 40 08 24 40 00 00 D3 ... -- CPU_WriteMem(428 bytes @ 0x1FFFF000)  returns 0x1AC (0017ms, 1689ms total)
T1C24 002:245 JLINK_WriteReg(R0, 0x00000000)  returns 0x00 (0000ms, 1689ms total)
T1C24 002:245 JLINK_WriteReg(R1, 0x00B71B00)  returns 0x00 (0000ms, 1689ms total)
T1C24 002:245 JLINK_WriteReg(R2, 0x00000002)  returns 0x00 (0000ms, 1689ms total)
T1C24 002:245 JLINK_WriteReg(R3, 0x00000000)  returns 0x00 (0000ms, 1689ms total)
T1C24 002:245 JLINK_WriteReg(R4, 0x00000000)  returns 0x00 (0000ms, 1689ms total)
T1C24 002:245 JLINK_WriteReg(R5, 0x00000000)  returns 0x00 (0000ms, 1689ms total)
T1C24 002:245 JLINK_WriteReg(R6, 0x00000000)  returns 0x00 (0000ms, 1689ms total)
T1C24 002:245 JLINK_WriteReg(R7, 0x00000000)  returns 0x00 (0000ms, 1689ms total)
T1C24 002:245 JLINK_WriteReg(R8, 0x00000000)  returns 0x00 (0000ms, 1689ms total)
T1C24 002:245 JLINK_WriteReg(R9, 0x1FFFF1A8)  returns 0x00 (0000ms, 1689ms total)
T1C24 002:245 JLINK_WriteReg(R10, 0x00000000)  returns 0x00 (0000ms, 1689ms total)
T1C24 002:245 JLINK_WriteReg(R11, 0x00000000)  returns 0x00 (0000ms, 1689ms total)
T1C24 002:245 JLINK_WriteReg(R12, 0x00000000)  returns 0x00 (0000ms, 1689ms total)
T1C24 002:245 JLINK_WriteReg(R13 (SP), 0x1FFFF800)  returns 0x00 (0000ms, 1689ms total)
T1C24 002:245 JLINK_WriteReg(R14, 0x1FFFF001)  returns 0x00 (0000ms, 1689ms total)
T1C24 002:245 JLINK_WriteReg(R15 (PC), 0x1FFFF038)  returns 0x00 (0000ms, 1689ms total)
T1C24 002:245 JLINK_WriteReg(XPSR, 0x01000000)  returns 0x00 (0000ms, 1689ms total)
T1C24 002:245 JLINK_WriteReg(MSP, 0x1FFFF800)  returns 0x00 (0000ms, 1689ms total)
T1C24 002:245 JLINK_WriteReg(PSP, 0x1FFFF800)  returns 0x00 (0000ms, 1689ms total)
T1C24 002:245 JLINK_WriteReg(CFBP, 0x00000000)  returns 0x00 (0000ms, 1689ms total)
T1C24 002:245 JLINK_SetBPEx(Addr = 0x1FFFF000, Type = 0xFFFFFFF2)  returns 0x00000004 (0000ms, 1689ms total)
T1C24 002:245 JLINK_Go() -- CPU_WriteMem(4 bytes @ 0xE0002000) -- CPU_ReadMem(4 bytes @ 0xE0001000) -- CPU_WriteMem(4 bytes @ 0xE0001000) (0024ms, 1713ms total)
T1C24 002:269 JLINK_IsHalted()  returns TRUE (0015ms, 1728ms total)
T1C24 002:284 JLINK_ReadReg(R15 (PC))  returns 0x1FFFF000 (0000ms, 1713ms total)
T1C24 002:284 JLINK_ClrBPEx(BPHandle = 0x00000004)  returns 0x00 (0000ms, 1713ms total)
T1C24 002:284 JLINK_ReadReg(R0)  returns 0x00000000 (0000ms, 1713ms total)
T1C24 002:284 JLINK_WriteMem(0x1FFFF1AC, 0x0100 Bytes, ...) - Data: E0 05 00 20 C7 03 00 00 D3 03 00 00 D5 03 00 00 ... -- CPU_WriteMem(256 bytes @ 0x1FFFF1AC)  returns 0x100 (0012ms, 1725ms total)
T1C24 002:296 JLINK_WriteReg(R0, 0x00000000)  returns 0x00 (0000ms, 1725ms total)
T1C24 002:296 JLINK_WriteReg(R1, 0x00000100)  returns 0x00 (0000ms, 1725ms total)
T1C24 002:296 JLINK_WriteReg(R2, 0x1FFFF1AC)  returns 0x00 (0000ms, 1725ms total)
T1C24 002:296 JLINK_WriteReg(R3, 0x00000000)  returns 0x00 (0000ms, 1725ms total)
T1C24 002:296 JLINK_WriteReg(R4, 0x00000000)  returns 0x00 (0000ms, 1725ms total)
T1C24 002:296 JLINK_WriteReg(R5, 0x00000000)  returns 0x00 (0000ms, 1725ms total)
T1C24 002:296 JLINK_WriteReg(R6, 0x00000000)  returns 0x00 (0000ms, 1725ms total)
T1C24 002:296 JLINK_WriteReg(R7, 0x00000000)  returns 0x00 (0000ms, 1725ms total)
T1C24 002:296 JLINK_WriteReg(R8, 0x00000000)  returns 0x00 (0000ms, 1725ms total)
T1C24 002:296 JLINK_WriteReg(R9, 0x1FFFF1A8)  returns 0x00 (0000ms, 1725ms total)
T1C24 002:296 JLINK_WriteReg(R10, 0x00000000)  returns 0x00 (0000ms, 1725ms total)
T1C24 002:296 JLINK_WriteReg(R11, 0x00000000)  returns 0x00 (0000ms, 1725ms total)
T1C24 002:296 JLINK_WriteReg(R12, 0x00000000)  returns 0x00 (0000ms, 1725ms total)
T1C24 002:296 JLINK_WriteReg(R13 (SP), 0x1FFFF800)  returns 0x00 (0000ms, 1725ms total)
T1C24 002:296 JLINK_WriteReg(R14, 0x1FFFF001)  returns 0x00 (0000ms, 1725ms total)
T1C24 002:296 JLINK_WriteReg(R15 (PC), 0x1FFFF118)  returns 0x00 (0000ms, 1725ms total)
T1C24 002:296 JLINK_WriteReg(XPSR, 0x01000000)  returns 0x00 (0000ms, 1725ms total)
T1C24 002:296 JLINK_WriteReg(MSP, 0x1FFFF800)  returns 0x00 (0000ms, 1725ms total)
T1C24 002:296 JLINK_WriteReg(PSP, 0x1FFFF800)  returns 0x00 (0000ms, 1725ms total)
T1C24 002:296 JLINK_WriteReg(CFBP, 0x00000000)  returns 0x00 (0000ms, 1725ms total)
T1C24 002:296 JLINK_SetBPEx(Addr = 0x1FFFF000, Type = 0xFFFFFFF2)  returns 0x00000005 (0000ms, 1725ms total)
T1C24 002:296 JLINK_Go() -- CPU_WriteMem(4 bytes @ 0xE0002000) -- CPU_ReadMem(4 bytes @ 0xE0001000) -- CPU_WriteMem(4 bytes @ 0xE0001000) (0024ms, 1749ms total)
T1C24 002:320 JLINK_IsHalted()  returns FALSE (0005ms, 1754ms total)
T1C24 002:402 JLINK_IsHalted()  returns TRUE (0015ms, 1764ms total)
T1C24 002:417 JLINK_ReadReg(R15 (PC))  returns 0x1FFFF000 (0000ms, 1749ms total)
T1C24 002:417 JLINK_ClrBPEx(BPHandle = 0x00000005)  returns 0x00 (0000ms, 1749ms total)
T1C24 002:417 JLINK_ReadReg(R0)  returns 0x00000000 (0000ms, 1749ms total)
T1C24 002:417 JLINK_WriteMem(0x1FFFF1AC, 0x0100 Bytes, ...) - Data: 40 69 01 21 89 04 08 43 43 49 48 61 08 46 40 69 ... -- CPU_WriteMem(256 bytes @ 0x1FFFF1AC)  returns 0x100 (0013ms, 1762ms total)
T1C24 002:430 JLINK_WriteReg(R0, 0x00000100)  returns 0x00 (0000ms, 1762ms total)
T1C24 002:430 JLINK_WriteReg(R1, 0x00000100)  returns 0x00 (0000ms, 1762ms total)
T1C24 002:430 JLINK_WriteReg(R2, 0x1FFFF1AC)  returns 0x00 (0000ms, 1762ms total)
T1C24 002:430 JLINK_WriteReg(R3, 0x00000000)  returns 0x00 (0000ms, 1762ms total)
T1C24 002:430 JLINK_WriteReg(R4, 0x00000000)  returns 0x00 (0000ms, 1762ms total)
T1C24 002:430 JLINK_WriteReg(R5, 0x00000000)  returns 0x00 (0000ms, 1762ms total)
T1C24 002:430 JLINK_WriteReg(R6, 0x00000000)  returns 0x00 (0000ms, 1762ms total)
T1C24 002:430 JLINK_WriteReg(R7, 0x00000000)  returns 0x00 (0000ms, 1762ms total)
T1C24 002:430 JLINK_WriteReg(R8, 0x00000000)  returns 0x00 (0000ms, 1762ms total)
T1C24 002:430 JLINK_WriteReg(R9, 0x1FFFF1A8)  returns 0x00 (0000ms, 1762ms total)
T1C24 002:430 JLINK_WriteReg(R10, 0x00000000)  returns 0x00 (0000ms, 1762ms total)
T1C24 002:430 JLINK_WriteReg(R11, 0x00000000)  returns 0x00 (0000ms, 1762ms total)
T1C24 002:430 JLINK_WriteReg(R12, 0x00000000)  returns 0x00 (0000ms, 1762ms total)
T1C24 002:430 JLINK_WriteReg(R13 (SP), 0x1FFFF800)  returns 0x00 (0000ms, 1762ms total)
T1C24 002:430 JLINK_WriteReg(R14, 0x1FFFF001)  returns 0x00 (0000ms, 1762ms total)
T1C24 002:430 JLINK_WriteReg(R15 (PC), 0x1FFFF118)  returns 0x00 (0000ms, 1762ms total)
T1C24 002:430 JLINK_WriteReg(XPSR, 0x01000000)  returns 0x00 (0000ms, 1762ms total)
T1C24 002:430 JLINK_WriteReg(MSP, 0x1FFFF800)  returns 0x00 (0000ms, 1762ms total)
T1C24 002:430 JLINK_WriteReg(PSP, 0x1FFFF800)  returns 0x00 (0000ms, 1762ms total)
T1C24 002:430 JLINK_WriteReg(CFBP, 0x00000000)  returns 0x00 (0000ms, 1762ms total)
T1C24 002:430 JLINK_SetBPEx(Addr = 0x1FFFF000, Type = 0xFFFFFFF2)  returns 0x00000006 (0000ms, 1762ms total)
T1C24 002:430 JLINK_Go() -- CPU_WriteMem(4 bytes @ 0xE0002000) -- CPU_ReadMem(4 bytes @ 0xE0001000) -- CPU_WriteMem(4 bytes @ 0xE0001000) (0025ms, 1787ms total)
T1C24 002:455 JLINK_IsHalted()  returns FALSE (0004ms, 1791ms total)
T1C24 002:522 JLINK_IsHalted()  returns TRUE (0015ms, 1802ms total)
T1C24 002:537 JLINK_ReadReg(R15 (PC))  returns 0x1FFFF000 (0000ms, 1787ms total)
T1C24 002:537 JLINK_ClrBPEx(BPHandle = 0x00000006)  returns 0x00 (0000ms, 1787ms total)
T1C24 002:537 JLINK_ReadReg(R0)  returns 0x00000000 (0000ms, 1787ms total)
T1C24 002:537 JLINK_WriteMem(0x1FFFF1AC, 0x0100 Bytes, ...) - Data: 48 60 08 46 40 68 01 21 49 04 08 43 02 49 48 60 ... -- CPU_WriteMem(256 bytes @ 0x1FFFF1AC)  returns 0x100 (0013ms, 1800ms total)
T1C24 002:550 JLINK_WriteReg(R0, 0x00000200)  returns 0x00 (0004ms, 1804ms total)
T1C24 002:554 JLINK_WriteReg(R1, 0x00000100)  returns 0x00 (0000ms, 1804ms total)
T1C24 002:554 JLINK_WriteReg(R2, 0x1FFFF1AC)  returns 0x00 (0000ms, 1804ms total)
T1C24 002:554 JLINK_WriteReg(R3, 0x00000000)  returns 0x00 (0000ms, 1804ms total)
T1C24 002:554 JLINK_WriteReg(R4, 0x00000000)  returns 0x00 (0000ms, 1804ms total)
T1C24 002:554 JLINK_WriteReg(R5, 0x00000000)  returns 0x00 (0000ms, 1804ms total)
T1C24 002:554 JLINK_WriteReg(R6, 0x00000000)  returns 0x00 (0000ms, 1804ms total)
T1C24 002:554 JLINK_WriteReg(R7, 0x00000000)  returns 0x00 (0000ms, 1804ms total)
T1C24 002:554 JLINK_WriteReg(R8, 0x00000000)  returns 0x00 (0000ms, 1804ms total)
T1C24 002:554 JLINK_WriteReg(R9, 0x1FFFF1A8)  returns 0x00 (0000ms, 1804ms total)
T1C24 002:554 JLINK_WriteReg(R10, 0x00000000)  returns 0x00 (0000ms, 1804ms total)
T1C24 002:554 JLINK_WriteReg(R11, 0x00000000)  returns 0x00 (0000ms, 1804ms total)
T1C24 002:554 JLINK_WriteReg(R12, 0x00000000)  returns 0x00 (0000ms, 1804ms total)
T1C24 002:554 JLINK_WriteReg(R13 (SP), 0x1FFFF800)  returns 0x00 (0000ms, 1804ms total)
T1C24 002:554 JLINK_WriteReg(R14, 0x1FFFF001)  returns 0x00 (0000ms, 1804ms total)
T1C24 002:554 JLINK_WriteReg(R15 (PC), 0x1FFFF118)  returns 0x00 (0000ms, 1804ms total)
T1C24 002:554 JLINK_WriteReg(XPSR, 0x01000000)  returns 0x00 (0000ms, 1804ms total)
T1C24 002:554 JLINK_WriteReg(MSP, 0x1FFFF800)  returns 0x00 (0000ms, 1804ms total)
T1C24 002:554 JLINK_WriteReg(PSP, 0x1FFFF800)  returns 0x00 (0000ms, 1804ms total)
T1C24 002:554 JLINK_WriteReg(CFBP, 0x00000000)  returns 0x00 (0000ms, 1804ms total)
T1C24 002:554 JLINK_SetBPEx(Addr = 0x1FFFF000, Type = 0xFFFFFFF2)  returns 0x00000007 (0000ms, 1804ms total)
T1C24 002:554 JLINK_Go() -- CPU_WriteMem(4 bytes @ 0xE0002000) -- CPU_ReadMem(4 bytes @ 0xE0001000) -- CPU_WriteMem(4 bytes @ 0xE0001000) (0024ms, 1828ms total)
T1C24 002:578 JLINK_IsHalted()  returns FALSE (0005ms, 1833ms total)
T1C24 002:638 JLINK_IsHalted()  returns TRUE (0015ms, 1843ms total)
T1C24 002:653 JLINK_ReadReg(R15 (PC))  returns 0x1FFFF000 (0000ms, 1828ms total)
T1C24 002:653 JLINK_ClrBPEx(BPHandle = 0x00000007)  returns 0x00 (0000ms, 1828ms total)
T1C24 002:653 JLINK_ReadReg(R0)  returns 0x00000000 (0000ms, 1828ms total)
T1C24 002:653 JLINK_WriteMem(0x1FFFF1AC, 0x0100 Bytes, ...) - Data: ED 0F 00 2D 01 D0 10 25 2A 43 05 88 ED 05 AD 0F ... -- CPU_WriteMem(256 bytes @ 0x1FFFF1AC)  returns 0x100 (0012ms, 1840ms total)
T1C24 002:665 JLINK_WriteReg(R0, 0x00000300)  returns 0x00 (0000ms, 1840ms total)
T1C24 002:665 JLINK_WriteReg(R1, 0x00000100)  returns 0x00 (0000ms, 1840ms total)
T1C24 002:665 JLINK_WriteReg(R2, 0x1FFFF1AC)  returns 0x00 (0000ms, 1840ms total)
T1C24 002:665 JLINK_WriteReg(R3, 0x00000000)  returns 0x00 (0000ms, 1840ms total)
T1C24 002:665 JLINK_WriteReg(R4, 0x00000000)  returns 0x00 (0000ms, 1840ms total)
T1C24 002:665 JLINK_WriteReg(R5, 0x00000000)  returns 0x00 (0000ms, 1840ms total)
T1C24 002:666 JLINK_WriteReg(R6, 0x00000000)  returns 0x00 (0000ms, 1840ms total)
T1C24 002:666 JLINK_WriteReg(R7, 0x00000000)  returns 0x00 (0000ms, 1840ms total)
T1C24 002:666 JLINK_WriteReg(R8, 0x00000000)  returns 0x00 (0000ms, 1840ms total)
T1C24 002:666 JLINK_WriteReg(R9, 0x1FFFF1A8)  returns 0x00 (0000ms, 1840ms total)
T1C24 002:666 JLINK_WriteReg(R10, 0x00000000)  returns 0x00 (0000ms, 1840ms total)
T1C24 002:666 JLINK_WriteReg(R11, 0x00000000)  returns 0x00 (0000ms, 1840ms total)
T1C24 002:666 JLINK_WriteReg(R12, 0x00000000)  returns 0x00 (0000ms, 1840ms total)
T1C24 002:666 JLINK_WriteReg(R13 (SP), 0x1FFFF800)  returns 0x00 (0000ms, 1840ms total)
T1C24 002:666 JLINK_WriteReg(R14, 0x1FFFF001)  returns 0x00 (0000ms, 1840ms total)
T1C24 002:666 JLINK_WriteReg(R15 (PC), 0x1FFFF118)  returns 0x00 (0000ms, 1840ms total)
T1C24 002:666 JLINK_WriteReg(XPSR, 0x01000000)  returns 0x00 (0000ms, 1840ms total)
T1C24 002:666 JLINK_WriteReg(MSP, 0x1FFFF800)  returns 0x00 (0000ms, 1840ms total)
T1C24 002:666 JLINK_WriteReg(PSP, 0x1FFFF800)  returns 0x00 (0000ms, 1840ms total)
T1C24 002:666 JLINK_WriteReg(CFBP, 0x00000000)  returns 0x00 (0000ms, 1840ms total)
T1C24 002:666 JLINK_SetBPEx(Addr = 0x1FFFF000, Type = 0xFFFFFFF2)  returns 0x00000008 (0000ms, 1840ms total)
T1C24 002:666 JLINK_Go() -- CPU_WriteMem(4 bytes @ 0xE0002000) -- CPU_ReadMem(4 bytes @ 0xE0001000) -- CPU_WriteMem(4 bytes @ 0xE0001000) (0024ms, 1864ms total)
T1C24 002:690 JLINK_IsHalted()  returns FALSE (0004ms, 1868ms total)
T1C24 002:748 JLINK_IsHalted()  returns TRUE (0015ms, 1879ms total)
T1C24 002:763 JLINK_ReadReg(R15 (PC))  returns 0x1FFFF000 (0000ms, 1864ms total)
T1C24 002:763 JLINK_ClrBPEx(BPHandle = 0x00000008)  returns 0x00 (0000ms, 1864ms total)
T1C24 002:763 JLINK_ReadReg(R0)  returns 0x00000000 (0000ms, 1864ms total)
T1C24 002:763 JLINK_WriteMem(0x1FFFF1AC, 0x0100 Bytes, ...) - Data: FF FF FF FF FF FF FF FF FF FF FF FF FF FF FE FE ... -- CPU_WriteMem(256 bytes @ 0x1FFFF1AC)  returns 0x100 (0012ms, 1876ms total)
T1C24 002:780 JLINK_WriteReg(R0, 0x00000400)  returns 0x00 (0000ms, 1876ms total)
T1C24 002:780 JLINK_WriteReg(R1, 0x00000100)  returns 0x00 (0000ms, 1876ms total)
T1C24 002:780 JLINK_WriteReg(R2, 0x1FFFF1AC)  returns 0x00 (0000ms, 1876ms total)
T1C24 002:780 JLINK_WriteReg(R3, 0x00000000)  returns 0x00 (0000ms, 1876ms total)
T1C24 002:780 JLINK_WriteReg(R4, 0x00000000)  returns 0x00 (0000ms, 1876ms total)
T1C24 002:780 JLINK_WriteReg(R5, 0x00000000)  returns 0x00 (0000ms, 1876ms total)
T1C24 002:780 JLINK_WriteReg(R6, 0x00000000)  returns 0x00 (0000ms, 1876ms total)
T1C24 002:780 JLINK_WriteReg(R7, 0x00000000)  returns 0x00 (0000ms, 1876ms total)
T1C24 002:780 JLINK_WriteReg(R8, 0x00000000)  returns 0x00 (0000ms, 1876ms total)
T1C24 002:780 JLINK_WriteReg(R9, 0x1FFFF1A8)  returns 0x00 (0000ms, 1876ms total)
T1C24 002:780 JLINK_WriteReg(R10, 0x00000000)  returns 0x00 (0000ms, 1876ms total)
T1C24 002:780 JLINK_WriteReg(R11, 0x00000000)  returns 0x00 (0000ms, 1876ms total)
T1C24 002:780 JLINK_WriteReg(R12, 0x00000000)  returns 0x00 (0000ms, 1876ms total)
T1C24 002:780 JLINK_WriteReg(R13 (SP), 0x1FFFF800)  returns 0x00 (0000ms, 1876ms total)
T1C24 002:780 JLINK_WriteReg(R14, 0x1FFFF001)  returns 0x00 (0000ms, 1876ms total)
T1C24 002:780 JLINK_WriteReg(R15 (PC), 0x1FFFF118)  returns 0x00 (0000ms, 1876ms total)
T1C24 002:780 JLINK_WriteReg(XPSR, 0x01000000)  returns 0x00 (0000ms, 1876ms total)
T1C24 002:780 JLINK_WriteReg(MSP, 0x1FFFF800)  returns 0x00 (0000ms, 1876ms total)
T1C24 002:780 JLINK_WriteReg(PSP, 0x1FFFF800)  returns 0x00 (0000ms, 1876ms total)
T1C24 002:780 JLINK_WriteReg(CFBP, 0x00000000)  returns 0x00 (0000ms, 1876ms total)
T1C24 002:780 JLINK_SetBPEx(Addr = 0x1FFFF000, Type = 0xFFFFFFF2)  returns 0x00000009 (0000ms, 1876ms total)
T1C24 002:780 JLINK_Go() -- CPU_WriteMem(4 bytes @ 0xE0002000) -- CPU_ReadMem(4 bytes @ 0xE0001000) -- CPU_WriteMem(4 bytes @ 0xE0001000) (0024ms, 1900ms total)
T1C24 002:804 JLINK_IsHalted()  returns FALSE (0004ms, 1904ms total)
T1C24 002:860 JLINK_IsHalted()  returns TRUE (0014ms, 1914ms total)
T1C24 002:874 JLINK_ReadReg(R15 (PC))  returns 0x1FFFF000 (0000ms, 1900ms total)
T1C24 002:874 JLINK_ClrBPEx(BPHandle = 0x00000009)  returns 0x00 (0000ms, 1900ms total)
T1C24 002:874 JLINK_ReadReg(R0)  returns 0x00000000 (0000ms, 1900ms total)
T1C24 002:875 JLINK_WriteMem(0x1FFFF1AC, 0x0100 Bytes, ...) - Data: 40 78 04 21 88 43 01 46 68 46 41 70 40 78 02 21 ... -- CPU_WriteMem(256 bytes @ 0x1FFFF1AC)  returns 0x100 (0012ms, 1912ms total)
T1C24 002:887 JLINK_WriteReg(R0, 0x00000500)  returns 0x00 (0000ms, 1912ms total)
T1C24 002:887 JLINK_WriteReg(R1, 0x00000100)  returns 0x00 (0000ms, 1912ms total)
T1C24 002:887 JLINK_WriteReg(R2, 0x1FFFF1AC)  returns 0x00 (0000ms, 1912ms total)
T1C24 002:887 JLINK_WriteReg(R3, 0x00000000)  returns 0x00 (0000ms, 1912ms total)
T1C24 002:887 JLINK_WriteReg(R4, 0x00000000)  returns 0x00 (0000ms, 1912ms total)
T1C24 002:887 JLINK_WriteReg(R5, 0x00000000)  returns 0x00 (0000ms, 1912ms total)
T1C24 002:887 JLINK_WriteReg(R6, 0x00000000)  returns 0x00 (0000ms, 1912ms total)
T1C24 002:887 JLINK_WriteReg(R7, 0x00000000)  returns 0x00 (0000ms, 1912ms total)
T1C24 002:887 JLINK_WriteReg(R8, 0x00000000)  returns 0x00 (0000ms, 1912ms total)
T1C24 002:887 JLINK_WriteReg(R9, 0x1FFFF1A8)  returns 0x00 (0000ms, 1912ms total)
T1C24 002:887 JLINK_WriteReg(R10, 0x00000000)  returns 0x00 (0000ms, 1912ms total)
T1C24 002:887 JLINK_WriteReg(R11, 0x00000000)  returns 0x00 (0000ms, 1912ms total)
T1C24 002:887 JLINK_WriteReg(R12, 0x00000000)  returns 0x00 (0000ms, 1912ms total)
T1C24 002:887 JLINK_WriteReg(R13 (SP), 0x1FFFF800)  returns 0x00 (0000ms, 1912ms total)
T1C24 002:887 JLINK_WriteReg(R14, 0x1FFFF001)  returns 0x00 (0000ms, 1912ms total)
T1C24 002:887 JLINK_WriteReg(R15 (PC), 0x1FFFF118)  returns 0x00 (0000ms, 1912ms total)
T1C24 002:887 JLINK_WriteReg(XPSR, 0x01000000)  returns 0x00 (0001ms, 1913ms total)
T1C24 002:888 JLINK_WriteReg(MSP, 0x1FFFF800)  returns 0x00 (0000ms, 1913ms total)
T1C24 002:888 JLINK_WriteReg(PSP, 0x1FFFF800)  returns 0x00 (0000ms, 1913ms total)
T1C24 002:888 JLINK_WriteReg(CFBP, 0x00000000)  returns 0x00 (0000ms, 1913ms total)
T1C24 002:888 JLINK_SetBPEx(Addr = 0x1FFFF000, Type = 0xFFFFFFF2)  returns 0x0000000A (0000ms, 1913ms total)
T1C24 002:888 JLINK_Go() -- CPU_WriteMem(4 bytes @ 0xE0002000) -- CPU_ReadMem(4 bytes @ 0xE0001000) -- CPU_WriteMem(4 bytes @ 0xE0001000) (0028ms, 1941ms total)
T1C24 002:916 JLINK_IsHalted()  returns FALSE (0005ms, 1946ms total)
T1C24 002:995 JLINK_IsHalted()  returns TRUE (0014ms, 1955ms total)
T1C24 003:010 JLINK_ReadReg(R15 (PC))  returns 0x1FFFF000 (0000ms, 1941ms total)
T1C24 003:010 JLINK_ClrBPEx(BPHandle = 0x0000000A)  returns 0x00 (0000ms, 1941ms total)
T1C24 003:010 JLINK_ReadReg(R0)  returns 0x00000000 (0000ms, 1941ms total)
T1C24 003:010 JLINK_WriteMem(0x1FFFF1AC, 0x0100 Bytes, ...) - Data: FC 21 88 43 01 46 0C 31 68 46 C1 80 C0 88 81 08 ... -- CPU_WriteMem(256 bytes @ 0x1FFFF1AC)  returns 0x100 (0012ms, 1953ms total)
T1C24 003:027 JLINK_WriteReg(R0, 0x00000600)  returns 0x00 (0000ms, 1953ms total)
T1C24 003:027 JLINK_WriteReg(R1, 0x00000100)  returns 0x00 (0000ms, 1953ms total)
T1C24 003:027 JLINK_WriteReg(R2, 0x1FFFF1AC)  returns 0x00 (0000ms, 1953ms total)
T1C24 003:027 JLINK_WriteReg(R3, 0x00000000)  returns 0x00 (0000ms, 1953ms total)
T1C24 003:027 JLINK_WriteReg(R4, 0x00000000)  returns 0x00 (0000ms, 1953ms total)
T1C24 003:027 JLINK_WriteReg(R5, 0x00000000)  returns 0x00 (0000ms, 1953ms total)
T1C24 003:027 JLINK_WriteReg(R6, 0x00000000)  returns 0x00 (0000ms, 1953ms total)
T1C24 003:027 JLINK_WriteReg(R7, 0x00000000)  returns 0x00 (0000ms, 1953ms total)
T1C24 003:027 JLINK_WriteReg(R8, 0x00000000)  returns 0x00 (0000ms, 1953ms total)
T1C24 003:027 JLINK_WriteReg(R9, 0x1FFFF1A8)  returns 0x00 (0000ms, 1953ms total)
T1C24 003:027 JLINK_WriteReg(R10, 0x00000000)  returns 0x00 (0000ms, 1953ms total)
T1C24 003:027 JLINK_WriteReg(R11, 0x00000000)  returns 0x00 (0000ms, 1953ms total)
T1C24 003:027 JLINK_WriteReg(R12, 0x00000000)  returns 0x00 (0000ms, 1953ms total)
T1C24 003:027 JLINK_WriteReg(R13 (SP), 0x1FFFF800)  returns 0x00 (0000ms, 1953ms total)
T1C24 003:027 JLINK_WriteReg(R14, 0x1FFFF001)  returns 0x00 (0000ms, 1953ms total)
T1C24 003:027 JLINK_WriteReg(R15 (PC), 0x1FFFF118)  returns 0x00 (0000ms, 1953ms total)
T1C24 003:027 JLINK_WriteReg(XPSR, 0x01000000)  returns 0x00 (0000ms, 1953ms total)
T1C24 003:027 JLINK_WriteReg(MSP, 0x1FFFF800)  returns 0x00 (0000ms, 1953ms total)
T1C24 003:027 JLINK_WriteReg(PSP, 0x1FFFF800)  returns 0x00 (0000ms, 1953ms total)
T1C24 003:027 JLINK_WriteReg(CFBP, 0x00000000)  returns 0x00 (0000ms, 1953ms total)
T1C24 003:027 JLINK_SetBPEx(Addr = 0x1FFFF000, Type = 0xFFFFFFF2)  returns 0x0000000B (0000ms, 1953ms total)
T1C24 003:027 JLINK_Go() -- CPU_WriteMem(4 bytes @ 0xE0002000) -- CPU_ReadMem(4 bytes @ 0xE0001000) -- CPU_WriteMem(4 bytes @ 0xE0001000) (0024ms, 1977ms total)
T1C24 003:051 JLINK_IsHalted()  returns FALSE (0005ms, 1982ms total)
T1C24 003:138 JLINK_IsHalted()  returns TRUE (0014ms, 1991ms total)
T1C24 003:152 JLINK_ReadReg(R15 (PC))  returns 0x1FFFF000 (0000ms, 1977ms total)
T1C24 003:152 JLINK_ClrBPEx(BPHandle = 0x0000000B)  returns 0x00 (0001ms, 1978ms total)
T1C24 003:153 JLINK_ReadReg(R0)  returns 0x00000000 (0000ms, 1978ms total)
T1C24 003:153 JLINK_WriteMem(0x1FFFF1AC, 0x0100 Bytes, ...) - Data: FF 21 01 31 88 43 01 46 68 46 81 80 80 88 40 21 ... -- CPU_WriteMem(256 bytes @ 0x1FFFF1AC)  returns 0x100 (0012ms, 1990ms total)
T1C24 003:165 JLINK_WriteReg(R0, 0x00000700)  returns 0x00 (0000ms, 1990ms total)
T1C24 003:165 JLINK_WriteReg(R1, 0x00000100)  returns 0x00 (0000ms, 1990ms total)
T1C24 003:165 JLINK_WriteReg(R2, 0x1FFFF1AC)  returns 0x00 (0000ms, 1990ms total)
T1C24 003:165 JLINK_WriteReg(R3, 0x00000000)  returns 0x00 (0000ms, 1990ms total)
T1C24 003:165 JLINK_WriteReg(R4, 0x00000000)  returns 0x00 (0000ms, 1990ms total)
T1C24 003:165 JLINK_WriteReg(R5, 0x00000000)  returns 0x00 (0000ms, 1990ms total)
T1C24 003:165 JLINK_WriteReg(R6, 0x00000000)  returns 0x00 (0000ms, 1990ms total)
T1C24 003:165 JLINK_WriteReg(R7, 0x00000000)  returns 0x00 (0000ms, 1990ms total)
T1C24 003:165 JLINK_WriteReg(R8, 0x00000000)  returns 0x00 (0000ms, 1990ms total)
T1C24 003:165 JLINK_WriteReg(R9, 0x1FFFF1A8)  returns 0x00 (0000ms, 1990ms total)
T1C24 003:165 JLINK_WriteReg(R10, 0x00000000)  returns 0x00 (0000ms, 1990ms total)
T1C24 003:165 JLINK_WriteReg(R11, 0x00000000)  returns 0x00 (0001ms, 1991ms total)
T1C24 003:166 JLINK_WriteReg(R12, 0x00000000)  returns 0x00 (0000ms, 1991ms total)
T1C24 003:166 JLINK_WriteReg(R13 (SP), 0x1FFFF800)  returns 0x00 (0000ms, 1991ms total)
T1C24 003:166 JLINK_WriteReg(R14, 0x1FFFF001)  returns 0x00 (0000ms, 1991ms total)
T1C24 003:166 JLINK_WriteReg(R15 (PC), 0x1FFFF118)  returns 0x00 (0000ms, 1991ms total)
T1C24 003:166 JLINK_WriteReg(XPSR, 0x01000000)  returns 0x00 (0000ms, 1991ms total)
T1C24 003:166 JLINK_WriteReg(MSP, 0x1FFFF800)  returns 0x00 (0000ms, 1991ms total)
T1C24 003:166 JLINK_WriteReg(PSP, 0x1FFFF800)  returns 0x00 (0000ms, 1991ms total)
T1C24 003:166 JLINK_WriteReg(CFBP, 0x00000000)  returns 0x00 (0000ms, 1991ms total)
T1C24 003:166 JLINK_SetBPEx(Addr = 0x1FFFF000, Type = 0xFFFFFFF2)  returns 0x0000000C (0000ms, 1991ms total)
T1C24 003:166 JLINK_Go() -- CPU_WriteMem(4 bytes @ 0xE0002000) -- CPU_ReadMem(4 bytes @ 0xE0001000) -- CPU_WriteMem(4 bytes @ 0xE0001000) (0024ms, 2015ms total)
T1C24 003:190 JLINK_IsHalted()  returns FALSE (0004ms, 2019ms total)
T1C24 003:277 JLINK_IsHalted()  returns TRUE (0015ms, 2030ms total)
T1C24 003:292 JLINK_ReadReg(R15 (PC))  returns 0x1FFFF000 (0000ms, 2015ms total)
T1C24 003:292 JLINK_ClrBPEx(BPHandle = 0x0000000C)  returns 0x00 (0000ms, 2015ms total)
T1C24 003:292 JLINK_ReadReg(R0)  returns 0x00000000 (0000ms, 2015ms total)
T1C24 003:292 JLINK_WriteMem(0x1FFFF1AC, 0x0100 Bytes, ...) - Data: 88 60 00 BF 19 20 00 F0 BA FA 0F 48 03 21 09 02 ... -- CPU_WriteMem(256 bytes @ 0x1FFFF1AC)  returns 0x100 (0013ms, 2028ms total)
T1C24 003:305 JLINK_WriteReg(R0, 0x00000800)  returns 0x00 (0000ms, 2028ms total)
T1C24 003:305 JLINK_WriteReg(R1, 0x00000100)  returns 0x00 (0000ms, 2028ms total)
T1C24 003:305 JLINK_WriteReg(R2, 0x1FFFF1AC)  returns 0x00 (0000ms, 2028ms total)
T1C24 003:305 JLINK_WriteReg(R3, 0x00000000)  returns 0x00 (0000ms, 2028ms total)
T1C24 003:305 JLINK_WriteReg(R4, 0x00000000)  returns 0x00 (0000ms, 2028ms total)
T1C24 003:305 JLINK_WriteReg(R5, 0x00000000)  returns 0x00 (0000ms, 2028ms total)
T1C24 003:305 JLINK_WriteReg(R6, 0x00000000)  returns 0x00 (0000ms, 2028ms total)
T1C24 003:305 JLINK_WriteReg(R7, 0x00000000)  returns 0x00 (0000ms, 2028ms total)
T1C24 003:305 JLINK_WriteReg(R8, 0x00000000)  returns 0x00 (0000ms, 2028ms total)
T1C24 003:305 JLINK_WriteReg(R9, 0x1FFFF1A8)  returns 0x00 (0000ms, 2028ms total)
T1C24 003:305 JLINK_WriteReg(R10, 0x00000000)  returns 0x00 (0000ms, 2028ms total)
T1C24 003:305 JLINK_WriteReg(R11, 0x00000000)  returns 0x00 (0000ms, 2028ms total)
T1C24 003:305 JLINK_WriteReg(R12, 0x00000000)  returns 0x00 (0000ms, 2028ms total)
T1C24 003:305 JLINK_WriteReg(R13 (SP), 0x1FFFF800)  returns 0x00 (0000ms, 2028ms total)
T1C24 003:305 JLINK_WriteReg(R14, 0x1FFFF001)  returns 0x00 (0000ms, 2028ms total)
T1C24 003:305 JLINK_WriteReg(R15 (PC), 0x1FFFF118)  returns 0x00 (0000ms, 2028ms total)
T1C24 003:305 JLINK_WriteReg(XPSR, 0x01000000)  returns 0x00 (0000ms, 2028ms total)
T1C24 003:305 JLINK_WriteReg(MSP, 0x1FFFF800)  returns 0x00 (0000ms, 2028ms total)
T1C24 003:305 JLINK_WriteReg(PSP, 0x1FFFF800)  returns 0x00 (0000ms, 2028ms total)
T1C24 003:305 JLINK_WriteReg(CFBP, 0x00000000)  returns 0x00 (0000ms, 2028ms total)
T1C24 003:305 JLINK_SetBPEx(Addr = 0x1FFFF000, Type = 0xFFFFFFF2)  returns 0x0000000D (0000ms, 2028ms total)
T1C24 003:305 JLINK_Go() -- CPU_WriteMem(4 bytes @ 0xE0002000) -- CPU_ReadMem(4 bytes @ 0xE0001000) -- CPU_WriteMem(4 bytes @ 0xE0001000) (0024ms, 2052ms total)
T1C24 003:329 JLINK_IsHalted()  returns FALSE (0005ms, 2057ms total)
T1C24 003:393 JLINK_IsHalted()  returns TRUE (0015ms, 2067ms total)
T1C24 003:408 JLINK_ReadReg(R15 (PC))  returns 0x1FFFF000 (0000ms, 2052ms total)
T1C24 003:408 JLINK_ClrBPEx(BPHandle = 0x0000000D)  returns 0x00 (0000ms, 2052ms total)
T1C24 003:408 JLINK_ReadReg(R0)  returns 0x00000000 (0000ms, 2052ms total)
T1C24 003:408 JLINK_WriteMem(0x1FFFF1AC, 0x0100 Bytes, ...) - Data: 01 46 68 46 01 80 00 88 10 21 88 43 01 46 68 46 ... -- CPU_WriteMem(256 bytes @ 0x1FFFF1AC)  returns 0x100 (0013ms, 2065ms total)
T1C24 003:421 JLINK_WriteReg(R0, 0x00000900)  returns 0x00 (0000ms, 2065ms total)
T1C24 003:421 JLINK_WriteReg(R1, 0x00000100)  returns 0x00 (0000ms, 2065ms total)
T1C24 003:421 JLINK_WriteReg(R2, 0x1FFFF1AC)  returns 0x00 (0000ms, 2065ms total)
T1C24 003:421 JLINK_WriteReg(R3, 0x00000000)  returns 0x00 (0000ms, 2065ms total)
T1C24 003:421 JLINK_WriteReg(R4, 0x00000000)  returns 0x00 (0000ms, 2065ms total)
T1C24 003:421 JLINK_WriteReg(R5, 0x00000000)  returns 0x00 (0000ms, 2065ms total)
T1C24 003:421 JLINK_WriteReg(R6, 0x00000000)  returns 0x00 (0000ms, 2065ms total)
T1C24 003:421 JLINK_WriteReg(R7, 0x00000000)  returns 0x00 (0000ms, 2065ms total)
T1C24 003:421 JLINK_WriteReg(R8, 0x00000000)  returns 0x00 (0000ms, 2065ms total)
T1C24 003:421 JLINK_WriteReg(R9, 0x1FFFF1A8)  returns 0x00 (0000ms, 2065ms total)
T1C24 003:421 JLINK_WriteReg(R10, 0x00000000)  returns 0x00 (0000ms, 2065ms total)
T1C24 003:421 JLINK_WriteReg(R11, 0x00000000)  returns 0x00 (0000ms, 2065ms total)
T1C24 003:421 JLINK_WriteReg(R12, 0x00000000)  returns 0x00 (0000ms, 2065ms total)
T1C24 003:421 JLINK_WriteReg(R13 (SP), 0x1FFFF800)  returns 0x00 (0000ms, 2065ms total)
T1C24 003:421 JLINK_WriteReg(R14, 0x1FFFF001)  returns 0x00 (0000ms, 2065ms total)
T1C24 003:421 JLINK_WriteReg(R15 (PC), 0x1FFFF118)  returns 0x00 (0000ms, 2065ms total)
T1C24 003:421 JLINK_WriteReg(XPSR, 0x01000000)  returns 0x00 (0000ms, 2065ms total)
T1C24 003:421 JLINK_WriteReg(MSP, 0x1FFFF800)  returns 0x00 (0000ms, 2065ms total)
T1C24 003:421 JLINK_WriteReg(PSP, 0x1FFFF800)  returns 0x00 (0000ms, 2065ms total)
T1C24 003:421 JLINK_WriteReg(CFBP, 0x00000000)  returns 0x00 (0000ms, 2065ms total)
T1C24 003:421 JLINK_SetBPEx(Addr = 0x1FFFF000, Type = 0xFFFFFFF2)  returns 0x0000000E (0000ms, 2065ms total)
T1C24 003:421 JLINK_Go() -- CPU_WriteMem(4 bytes @ 0xE0002000) -- CPU_ReadMem(4 bytes @ 0xE0001000) -- CPU_WriteMem(4 bytes @ 0xE0001000) (0024ms, 2089ms total)
T1C24 003:445 JLINK_IsHalted()  returns FALSE (0004ms, 2093ms total)
T1C24 003:505 JLINK_IsHalted()  returns TRUE (0015ms, 2104ms total)
T1C24 003:520 JLINK_ReadReg(R15 (PC))  returns 0x1FFFF000 (0000ms, 2089ms total)
T1C24 003:520 JLINK_ClrBPEx(BPHandle = 0x0000000E)  returns 0x00 (0000ms, 2089ms total)
T1C24 003:520 JLINK_ReadReg(R0)  returns 0x00000000 (0000ms, 2089ms total)
T1C24 003:531 JLINK_WriteMem(0x1FFFF1AC, 0x0100 Bytes, ...) - Data: 01 46 68 46 01 80 64 21 41 80 FF F7 3F FC 1C BD ... -- CPU_WriteMem(256 bytes @ 0x1FFFF1AC)  returns 0x100 (0012ms, 2101ms total)
T1C24 003:543 JLINK_WriteReg(R0, 0x00000A00)  returns 0x00 (0000ms, 2101ms total)
T1C24 003:543 JLINK_WriteReg(R1, 0x00000100)  returns 0x00 (0000ms, 2101ms total)
T1C24 003:543 JLINK_WriteReg(R2, 0x1FFFF1AC)  returns 0x00 (0000ms, 2101ms total)
T1C24 003:543 JLINK_WriteReg(R3, 0x00000000)  returns 0x00 (0000ms, 2101ms total)
T1C24 003:543 JLINK_WriteReg(R4, 0x00000000)  returns 0x00 (0000ms, 2101ms total)
T1C24 003:543 JLINK_WriteReg(R5, 0x00000000)  returns 0x00 (0000ms, 2101ms total)
T1C24 003:543 JLINK_WriteReg(R6, 0x00000000)  returns 0x00 (0000ms, 2101ms total)
T1C24 003:543 JLINK_WriteReg(R7, 0x00000000)  returns 0x00 (0000ms, 2101ms total)
T1C24 003:543 JLINK_WriteReg(R8, 0x00000000)  returns 0x00 (0000ms, 2101ms total)
T1C24 003:543 JLINK_WriteReg(R9, 0x1FFFF1A8)  returns 0x00 (0000ms, 2101ms total)
T1C24 003:543 JLINK_WriteReg(R10, 0x00000000)  returns 0x00 (0000ms, 2101ms total)
T1C24 003:543 JLINK_WriteReg(R11, 0x00000000)  returns 0x00 (0000ms, 2101ms total)
T1C24 003:543 JLINK_WriteReg(R12, 0x00000000)  returns 0x00 (0000ms, 2101ms total)
T1C24 003:543 JLINK_WriteReg(R13 (SP), 0x1FFFF800)  returns 0x00 (0000ms, 2101ms total)
T1C24 003:543 JLINK_WriteReg(R14, 0x1FFFF001)  returns 0x00 (0000ms, 2101ms total)
T1C24 003:543 JLINK_WriteReg(R15 (PC), 0x1FFFF118)  returns 0x00 (0000ms, 2101ms total)
T1C24 003:543 JLINK_WriteReg(XPSR, 0x01000000)  returns 0x00 (0000ms, 2101ms total)
T1C24 003:543 JLINK_WriteReg(MSP, 0x1FFFF800)  returns 0x00 (0000ms, 2101ms total)
T1C24 003:543 JLINK_WriteReg(PSP, 0x1FFFF800)  returns 0x00 (0000ms, 2101ms total)
T1C24 003:543 JLINK_WriteReg(CFBP, 0x00000000)  returns 0x00 (0001ms, 2102ms total)
T1C24 003:544 JLINK_SetBPEx(Addr = 0x1FFFF000, Type = 0xFFFFFFF2)  returns 0x0000000F (0000ms, 2102ms total)
T1C24 003:544 JLINK_Go() -- CPU_WriteMem(4 bytes @ 0xE0002000) -- CPU_ReadMem(4 bytes @ 0xE0001000) -- CPU_WriteMem(4 bytes @ 0xE0001000) (0026ms, 2128ms total)
T1C24 003:570 JLINK_IsHalted()  returns TRUE (0020ms, 2148ms total)
T1C24 003:590 JLINK_ReadReg(R15 (PC))  returns 0x1FFFF000 (0000ms, 2128ms total)
T1C24 003:590 JLINK_ClrBPEx(BPHandle = 0x0000000F)  returns 0x00 (0000ms, 2128ms total)
T1C24 003:590 JLINK_ReadReg(R0)  returns 0x00000000 (0000ms, 2128ms total)
T1C24 003:590 JLINK_WriteMem(0x1FFFF1AC, 0x0100 Bytes, ...) - Data: C0 1E 01 5D 40 1C 00 5D 81 42 04 D1 01 21 FF 20 ... -- CPU_WriteMem(256 bytes @ 0x1FFFF1AC)  returns 0x100 (0012ms, 2140ms total)
T1C24 003:602 JLINK_WriteReg(R0, 0x00000B00)  returns 0x00 (0000ms, 2140ms total)
T1C24 003:602 JLINK_WriteReg(R1, 0x00000100)  returns 0x00 (0000ms, 2140ms total)
T1C24 003:602 JLINK_WriteReg(R2, 0x1FFFF1AC)  returns 0x00 (0001ms, 2141ms total)
T1C24 003:603 JLINK_WriteReg(R3, 0x00000000)  returns 0x00 (0000ms, 2141ms total)
T1C24 003:603 JLINK_WriteReg(R4, 0x00000000)  returns 0x00 (0000ms, 2141ms total)
T1C24 003:603 JLINK_WriteReg(R5, 0x00000000)  returns 0x00 (0000ms, 2141ms total)
T1C24 003:603 JLINK_WriteReg(R6, 0x00000000)  returns 0x00 (0000ms, 2141ms total)
T1C24 003:603 JLINK_WriteReg(R7, 0x00000000)  returns 0x00 (0000ms, 2141ms total)
T1C24 003:603 JLINK_WriteReg(R8, 0x00000000)  returns 0x00 (0000ms, 2141ms total)
T1C24 003:603 JLINK_WriteReg(R9, 0x1FFFF1A8)  returns 0x00 (0000ms, 2141ms total)
T1C24 003:603 JLINK_WriteReg(R10, 0x00000000)  returns 0x00 (0000ms, 2141ms total)
T1C24 003:603 JLINK_WriteReg(R11, 0x00000000)  returns 0x00 (0000ms, 2141ms total)
T1C24 003:603 JLINK_WriteReg(R12, 0x00000000)  returns 0x00 (0000ms, 2141ms total)
T1C24 003:603 JLINK_WriteReg(R13 (SP), 0x1FFFF800)  returns 0x00 (0000ms, 2141ms total)
T1C24 003:603 JLINK_WriteReg(R14, 0x1FFFF001)  returns 0x00 (0000ms, 2141ms total)
T1C24 003:603 JLINK_WriteReg(R15 (PC), 0x1FFFF118)  returns 0x00 (0000ms, 2141ms total)
T1C24 003:603 JLINK_WriteReg(XPSR, 0x01000000)  returns 0x00 (0000ms, 2141ms total)
T1C24 003:603 JLINK_WriteReg(MSP, 0x1FFFF800)  returns 0x00 (0000ms, 2141ms total)
T1C24 003:603 JLINK_WriteReg(PSP, 0x1FFFF800)  returns 0x00 (0000ms, 2141ms total)
T1C24 003:603 JLINK_WriteReg(CFBP, 0x00000000)  returns 0x00 (0000ms, 2141ms total)
T1C24 003:603 JLINK_SetBPEx(Addr = 0x1FFFF000, Type = 0xFFFFFFF2)  returns 0x00000010 (0000ms, 2141ms total)
T1C24 003:603 JLINK_Go() -- CPU_WriteMem(4 bytes @ 0xE0002000) -- CPU_ReadMem(4 bytes @ 0xE0001000) -- CPU_WriteMem(4 bytes @ 0xE0001000) (0024ms, 2165ms total)
T1C24 003:627 JLINK_IsHalted()  returns FALSE (0004ms, 2169ms total)
T1C24 003:702 JLINK_IsHalted()  returns TRUE (0014ms, 2179ms total)
T1C24 003:716 JLINK_ReadReg(R15 (PC))  returns 0x1FFFF000 (0000ms, 2165ms total)
T1C24 003:716 JLINK_ClrBPEx(BPHandle = 0x00000010)  returns 0x00 (0000ms, 2165ms total)
T1C24 003:716 JLINK_ReadReg(R0)  returns 0x00000000 (0000ms, 2165ms total)
T1C24 003:733 JLINK_WriteMem(0x1FFFF1AC, 0x0100 Bytes, ...) - Data: 20 78 40 06 00 0E 30 43 69 46 C8 70 18 48 FF F7 ... -- CPU_WriteMem(256 bytes @ 0x1FFFF1AC)  returns 0x100 (0013ms, 2178ms total)
T1C24 003:746 JLINK_WriteReg(R0, 0x00000C00)  returns 0x00 (0000ms, 2178ms total)
T1C24 003:746 JLINK_WriteReg(R1, 0x00000100)  returns 0x00 (0000ms, 2178ms total)
T1C24 003:746 JLINK_WriteReg(R2, 0x1FFFF1AC)  returns 0x00 (0000ms, 2178ms total)
T1C24 003:746 JLINK_WriteReg(R3, 0x00000000)  returns 0x00 (0000ms, 2178ms total)
T1C24 003:746 JLINK_WriteReg(R4, 0x00000000)  returns 0x00 (0000ms, 2178ms total)
T1C24 003:746 JLINK_WriteReg(R5, 0x00000000)  returns 0x00 (0000ms, 2178ms total)
T1C24 003:746 JLINK_WriteReg(R6, 0x00000000)  returns 0x00 (0000ms, 2178ms total)
T1C24 003:746 JLINK_WriteReg(R7, 0x00000000)  returns 0x00 (0000ms, 2178ms total)
T1C24 003:746 JLINK_WriteReg(R8, 0x00000000)  returns 0x00 (0000ms, 2178ms total)
T1C24 003:746 JLINK_WriteReg(R9, 0x1FFFF1A8)  returns 0x00 (0000ms, 2178ms total)
T1C24 003:746 JLINK_WriteReg(R10, 0x00000000)  returns 0x00 (0000ms, 2178ms total)
